
T0620 000:332 SEGGER J-Link V4.98c Log File (0000ms, 0297ms total)
T0620 000:332 DLL Compiled: Apr 23 2015 20:21:50 (0000ms, 0297ms total)
T0620 000:332 Logging started @ 2015-08-04 20:05 (0000ms, 0297ms total)
T0620 000:332 JLINK_SetWarnOutHandler(...) (0000ms, 0297ms total)
T0620 000:332 JLINK_OpenEx(...)
Firmware: J-Link ARM V8 compiled Nov 28 2014 13:44:46
Hardware: V8.00
S/N: 17935099
Feature(s): RDI,FlashDL,FlashBP,JFlash  returns O.K. (0267ms, 0564ms total)
T0620 000:599 JLINK_SetErrorOutHandler(...) (0000ms, 0564ms total)
T0620 000:599 JLINK_ExecCommand("ProjectFile = "F:\smart\SmartDoor\SmartDoor\Projects\MDK-ARM\JLinkSettings.ini"", ...)  returns 0x00 (0001ms, 0565ms total)
T0620 000:600 JLINK_ExecCommand("Device = STM32F030C8", ...)Device "STM32F030C8" selected.  returns 0x00 (0000ms, 0565ms total)
T0620 000:600 JLINK_ExecCommand("DisableConnectionTimeout", ...)  returns 0x01 (0000ms, 0565ms total)
T0620 000:600 JLINK_GetHardwareVersion()  returns 0x13880 (0000ms, 0565ms total)
T0620 000:600 JLINK_GetDLLVersion()  returns 49803 (0000ms, 0565ms total)
T0620 000:600 JLINK_GetFirmwareString(...) (0000ms, 0565ms total)
T0620 000:601 JLINK_GetDLLVersion()  returns 49803 (0000ms, 0565ms total)
T0620 000:601 JLINK_GetCompileDateTime() (0000ms, 0565ms total)
T0620 000:602 JLINK_GetFirmwareString(...) (0000ms, 0565ms total)
T0620 000:602 JLINK_GetHardwareVersion()  returns 0x13880 (0000ms, 0565ms total)
T0620 000:602 JLINK_TIF_Select(JLINKARM_TIF_SWD)  returns 0x00 (0002ms, 0567ms total)
T0620 000:604 JLINK_SetSpeed(5000) (0003ms, 0570ms total)
T0620 000:607 JLINK_GetId() >0x108 TIF>Found SWD-DP with ID 0x0BB11477 >0x0D TIF> >0x28 TIF> >0x0D TIF> >0x28 TIF> >0x0D TIF> >0x21 TIF> >0x0D TIF> >0x28 TIF> >0x0D TIF> >0x28 TIF> >0x0D TIF> >0x28 TIF> >0x0D TIF> >0x21 TIF> >0x0D TIF> >0x21 TIF> >0x0D TIF> >0x28 TIF> >0x0D TIF> >0x21 TIF> >0x0D TIF> >0x21 TIF> >0x0D TIF> >0x28 TIF> >0x0D TIF> >0x21 TIF> >0x0D TIF> >0x21 TIF> >0x0D TIF> >0x28 TIF> >0x0D TIF> >0x28 TIF> >0x0D TIF> >0x28 TIF> >0x0D TIF> >0x21 TIF> >0x0D TIF> >0x21 TIF> >0x0D TIF>
 >0x28 TIF> >0x0D TIF> >0x28 TIF> >0x0D TIF> >0x28 TIF> >0x0D TIF> >0x21 TIF> >0x0D TIF> >0x21 TIF> >0x108 TIF>Found SWD-DP with ID 0x0BB11477 >0x0D TIF> >0x21 TIF> >0x0D TIF> >0x28 TIF> >0x0D TIF> >0x28 TIF> >0x0D TIF> >0x21 TIF> >0x0D TIF> >0x28 TIF> >0x0D TIF> >0x21 TIF> >0x0D TIF> >0x21 TIF> >0x0D TIF> >0x21 TIF> >0x0D TIF> >0x21 TIF> >0x0D TIF> >0x28 TIF> >0x0D TIF> >0x28 TIF> >0x0D TIF> >0x21 TIF> >0x0D TIF> >0x28 TIF> >0x0D TIF> >0x28 TIF> >0x0D TIF> >0x28 TIF> >0x0D TIF> >0x21 TIF> >0x0D TIF>
 >0x21 TIF> >0x0D TIF> >0x28 TIF> >0x0D TIF> >0x21 TIF> >0x0D TIF> >0x21 TIF>Found Cortex-M0 r0p0, Little endian. -- CPU_WriteMem(4 bytes @ 0xE0002000) -- CPU_ReadMem(4 bytes @ 0xE000EDF0) -- CPU_ReadMem(4 bytes @ 0xE0002000)FPUnit: 4 code (BP) slots and 0 literal slots -- CPU_ReadMem(4 bytes @ 0xE000EDFC) -- CPU_ReadMem(4 bytes @ 0xE0001000) -- CPU_WriteMem(4 bytes @ 0xE0001000)CoreSight components:ROMTbl 0 @ E00FF000 -- CPU_ReadMem(16 bytes @ 0xE00FF000) -- CPU_ReadMem(16 bytes @ 0xE000EFF0)
 -- CPU_ReadMem(16 bytes @ 0xE000EFE0)ROMTbl 0 [0]: FFF0F000, CID: B105E00D, PID: 000BB008 SCS -- CPU_ReadMem(16 bytes @ 0xE0001FF0) -- CPU_ReadMem(16 bytes @ 0xE0001FE0)ROMTbl 0 [1]: FFF02000, CID: B105E00D, PID: 000BB00A DWT -- CPU_ReadMem(16 bytes @ 0xE0002FF0) -- CPU_ReadMem(16 bytes @ 0xE0002FE0)ROMTbl 0 [2]: FFF03000, CID: B105E00D, PID: 000BB00B FPB -- CPU_WriteMem(8192 bytes @ 0x20000000)
                JLINK_Go() -- CPU_ReadMem(4 bytes @ 0xE0001000) -- CPU_WriteMem(4 bytes @ 0xE0001000) (0002ms, 0002ms total)
               >0x0D TIF> >0x21 TIF>  returns 0x0BB11477 (0133ms, 0703ms total)
T0620 000:740 JLINK_GetDLLVersion()  returns 49803 (0000ms, 0703ms total)
T0620 000:740 JLINK_CORE_GetFound()  returns 0x60000FF (0001ms, 0704ms total)
T0620 000:741 JLINK_GetDebugInfo(0x100) -- Value=0xE00FF003  returns 0x00 (0000ms, 0704ms total)
T0620 000:741 JLINK_ReadMem (0xE00FF000, 0x0020 Bytes, ...) -- CPU is running -- CPU_ReadMem(32 bytes @ 0xE00FF000) - Data: 03 F0 F0 FF 03 20 F0 FF 03 30 F0 FF 00 00 00 00 ...  returns 0x00 (0001ms, 0705ms total)
T0620 000:742 JLINK_ReadMem (0xE000EFF0, 0x0010 Bytes, ...) -- CPU is running -- CPU_ReadMem(16 bytes @ 0xE000EFF0) - Data: 0D 00 00 00 E0 00 00 00 05 00 00 00 B1 00 00 00  returns 0x00 (0001ms, 0706ms total)
T0620 000:743 JLINK_ReadMem (0xE000EFD0, 0x0020 Bytes, ...) -- CPU is running -- CPU_ReadMem(32 bytes @ 0xE000EFD0) - Data: 04 00 00 00 00 00 00 00 00 00 00 00 00 00 00 00 ...  returns 0x00 (0002ms, 0708ms total)
T0620 000:745 JLINK_ReadMem (0xE0001FF0, 0x0010 Bytes, ...) -- CPU is running -- CPU_ReadMem(16 bytes @ 0xE0001FF0) - Data: 0D 00 00 00 E0 00 00 00 05 00 00 00 B1 00 00 00  returns 0x00 (0001ms, 0709ms total)
T0620 000:746 JLINK_ReadMem (0xE0001FD0, 0x0020 Bytes, ...) -- CPU is running -- CPU_ReadMem(32 bytes @ 0xE0001FD0) - Data: 04 00 00 00 00 00 00 00 00 00 00 00 00 00 00 00 ...  returns 0x00 (0001ms, 0710ms total)
T0620 000:747 JLINK_ReadMem (0xE0002FF0, 0x0010 Bytes, ...) -- CPU is running -- CPU_ReadMem(16 bytes @ 0xE0002FF0) - Data: 0D 00 00 00 E0 00 00 00 05 00 00 00 B1 00 00 00  returns 0x00 (0001ms, 0711ms total)
T0620 000:748 JLINK_ReadMem (0xE0002FD0, 0x0020 Bytes, ...) -- CPU is running -- CPU_ReadMem(32 bytes @ 0xE0002FD0) - Data: 04 00 00 00 00 00 00 00 00 00 00 00 00 00 00 00 ...  returns 0x00 (0001ms, 0712ms total)
T0620 000:749 JLINK_ReadMemU32(0xE000ED00, 0x0001 Items, ...) -- CPU is running -- CPU_ReadMem(4 bytes @ 0xE000ED00) - Data: 00 C2 0C 41  returns 0x01 (0001ms, 0713ms total)
T0620 000:750 JLINK_SetResetType(JLINKARM_RESET_TYPE_NORMAL)  returns JLINKARM_RESET_TYPE_NORMAL (0000ms, 0713ms total)
T0620 000:750 JLINK_Reset() -- CPU_ReadMem(4 bytes @ 0x20000000) -- CPU_WriteMem(4 bytes @ 0x20000000) -- CPU is running -- CPU_WriteMem(4 bytes @ 0xE000EDF0) -- CPU is running -- CPU_WriteMem(4 bytes @ 0xE000EDFC) >0x35 TIF> -- CPU is running -- CPU_WriteMem(4 bytes @ 0xE000ED0C) -- CPU is running -- CPU_ReadMem(4 bytes @ 0xE000EDF0) -- CPU is running -- CPU_ReadMem(4 bytes @ 0xE000EDF0) -- CPU is running -- CPU_WriteMem(4 bytes @ 0xE000EDF0) -- CPU is running -- CPU_WriteMem(4 bytes @ 0xE000EDFC)
 -- CPU is running -- CPU_ReadMem(4 bytes @ 0xE000EDF0) -- CPU_WriteMem(4 bytes @ 0xE0002000) -- CPU_ReadMem(4 bytes @ 0xE000EDFC) -- CPU_ReadMem(4 bytes @ 0xE0001000) -- CPU_WriteMem(4 bytes @ 0xE0001000) (0026ms, 0739ms total)
T0620 000:776 JLINK_ReadReg(R15 (PC))  returns 0x080000CC (0000ms, 0739ms total)
T0620 000:776 JLINK_ReadReg(XPSR)  returns 0xC1000000 (0000ms, 0739ms total)
T0620 000:776 JLINK_Halt()  returns 0x00 (0000ms, 0739ms total)
T0620 000:776 JLINK_IsHalted()  returns TRUE (0000ms, 0739ms total)
T0620 000:776 JLINK_ReadMemU32(0xE000EDF0, 0x0001 Items, ...) -- CPU_ReadMem(4 bytes @ 0xE000EDF0) - Data: 03 00 03 00  returns 0x01 (0002ms, 0741ms total)
T0620 000:778 JLINK_WriteU32(0xE000EDF0, 0xA05F0003) -- CPU_WriteMem(4 bytes @ 0xE000EDF0)  returns 0x00 (0000ms, 0741ms total)
T0620 000:778 JLINK_WriteU32(0xE000EDFC, 0x01000000) -- CPU_WriteMem(4 bytes @ 0xE000EDFC)  returns 0x00 (0001ms, 0742ms total)
T0620 000:780 JLINK_GetHWStatus(...)  returns 0x00 (0000ms, 0742ms total)
T0620 000:780 JLINK_GetNumBPUnits(Type = 0xFFFFFF00)  returns 0x04 (0000ms, 0742ms total)
T0620 000:780 JLINK_GetNumBPUnits(Type = 0xF0)  returns 0x2000 (0000ms, 0742ms total)
T0620 000:780 JLINK_GetNumWPUnits()  returns 0x02 (0000ms, 0742ms total)
T0620 000:780 JLINK_GetSpeed()  returns 0xFA0 (0000ms, 0742ms total)
T0620 000:780 JLINK_ReadMemU32(0xE000E004, 0x0001 Items, ...) -- CPU_ReadMem(4 bytes @ 0xE000E004) - Data: 00 00 00 00  returns 0x01 (0001ms, 0743ms total)
T0620 000:781 JLINK_ReadReg(R15 (PC))  returns 0x080000CC (0000ms, 0743ms total)
T0620 000:781 JLINK_ReadReg(XPSR)  returns 0xC1000000 (0000ms, 0743ms total)
T0620 000:861 JLINK_SetResetType(JLINKARM_RESET_TYPE_NORMAL)  returns JLINKARM_RESET_TYPE_NORMAL (0000ms, 0743ms total)
T0620 000:861 JLINK_Reset() -- CPU_WriteMem(4 bytes @ 0xE000EDF0) -- CPU_WriteMem(4 bytes @ 0xE000EDFC) >0x35 TIF> -- CPU_WriteMem(4 bytes @ 0xE000ED0C) -- CPU_ReadMem(4 bytes @ 0xE000EDF0) -- CPU_ReadMem(4 bytes @ 0xE000EDF0) -- CPU_WriteMem(4 bytes @ 0xE000EDF0) -- CPU_WriteMem(4 bytes @ 0xE000EDFC) -- CPU is running -- CPU_ReadMem(4 bytes @ 0xE000EDF0) -- CPU_WriteMem(4 bytes @ 0xE0002000) -- CPU_ReadMem(4 bytes @ 0xE000EDFC) -- CPU_ReadMem(4 bytes @ 0xE0001000) -- CPU_WriteMem(4 bytes @ 0xE0001000)
 (0024ms, 0767ms total)
T0620 000:885 JLINK_ReadReg(R15 (PC))  returns 0x080000CC (0000ms, 0767ms total)
T0620 000:885 JLINK_ReadReg(XPSR)  returns 0xC1000000 (0000ms, 0767ms total)
T0620 001:064 JLINK_ReadMem (0x080000CC, 0x003C Bytes, ...) -- CPU_ReadMem(128 bytes @ 0x080000C0) -- Updating C cache (128 bytes @ 0x080000C0) -- Read from C cache (60 bytes @ 0x080000CC) - Data: 0C 48 80 F3 08 88 0C 48 01 68 09 0E 0B 4A 91 42 ...  returns 0x00 (0002ms, 0769ms total)
T0620 001:093 JLINK_ReadMem (0x48000400, 0x0014 Bytes, ...) -- CPU_ReadMem(20 bytes @ 0x48000400) - Data: 00 00 00 00 00 00 00 00 00 00 00 00 00 00 00 00 ...  returns 0x00 (0001ms, 0770ms total)
T0620 001:094 JLINK_ReadMem (0x48000414, 0x0004 Bytes, ...) -- CPU_ReadMem(4 bytes @ 0x48000414) - Data: 00 00 00 00  returns 0x00 (0001ms, 0771ms total)
T0620 001:095 JLINK_ReadMem (0x4800041C, 0x0008 Bytes, ...) -- CPU_ReadMem(8 bytes @ 0x4800041C) - Data: 00 00 00 00 00 00 00 00  returns 0x00 (0001ms, 0772ms total)
T0620 001:096 JLINK_ReadMem (0x48000424, 0x0004 Bytes, ...) -- CPU_ReadMem(4 bytes @ 0x48000424) - Data: 00 00 00 00  returns 0x00 (0001ms, 0773ms total)
T0620 001:130 JLINK_ReadMem (0x48000800, 0x0014 Bytes, ...) -- CPU_ReadMem(20 bytes @ 0x48000800) - Data: 00 00 00 00 00 00 00 00 00 00 00 00 00 00 00 00 ...  returns 0x00 (0001ms, 0774ms total)
T0620 001:131 JLINK_ReadMem (0x48000814, 0x0004 Bytes, ...) -- CPU_ReadMem(4 bytes @ 0x48000814) - Data: 00 00 00 00  returns 0x00 (0001ms, 0775ms total)
T0620 001:132 JLINK_ReadMem (0x4800081C, 0x0008 Bytes, ...) -- CPU_ReadMem(8 bytes @ 0x4800081C) - Data: 00 00 00 00 00 00 00 00  returns 0x00 (0001ms, 0776ms total)
T0620 001:133 JLINK_ReadMem (0x48000824, 0x0004 Bytes, ...) -- CPU_ReadMem(4 bytes @ 0x48000824) - Data: 00 00 00 00  returns 0x00 (0001ms, 0777ms total)
T0620 002:450 JLINK_ReadMem (0x00000000, 0x02A8 Bytes, ...) -- CPU_ReadMem(4 bytes @ 0x00000004) -- CPU_ReadMem(192 bytes @ 0x08000000) -- Updating C cache (192 bytes @ 0x08000000) -- CPU_ReadMem(384 bytes @ 0x08000140) -- Updating C cache (384 bytes @ 0x08000140) -- Read from C cache (680 bytes @ 0x08000000) - Data: F0 0F 00 20 CD 00 00 08 FD 22 00 08 19 1D 00 08 ...  returns 0x00 (0007ms, 0784ms total)
T0620 003:026 JLINK_ReadMem (0x0800F000, 0x02A8 Bytes, ...) -- CPU_ReadMem(704 bytes @ 0x0800F000) -- Updating C cache (704 bytes @ 0x0800F000) -- Read from C cache (680 bytes @ 0x0800F000) - Data: FF FF FF FF FF FF FF FF FF FF FF FF FF FF FF FF ...  returns 0x00 (0005ms, 0789ms total)
T0620 003:031 JLINK_ReadMem (0x0800EC00, 0x02A8 Bytes, ...) -- CPU_ReadMem(704 bytes @ 0x0800EC00) -- Updating C cache (704 bytes @ 0x0800EC00) -- Read from C cache (680 bytes @ 0x0800EC00) - Data: 01 00 00 FF 00 00 00 00 00 00 00 00 00 00 00 00 ...  returns 0x00 (0006ms, 0795ms total)
T083C 003:052 JLINK_SetBPEx(Addr = 0x08003D90, Type = 0xFFFFFFF2)  returns 0x00000001 (0000ms, 0795ms total)
T083C 003:052 JLINK_Go() -- CPU_WriteMem(4 bytes @ 0xE0002000) -- CPU_ReadMem(4 bytes @ 0xE0001000) -- CPU_WriteMem(4 bytes @ 0xE0001000) -- CPU_WriteMem(4 bytes @ 0xE0002008) -- CPU_WriteMem(4 bytes @ 0xE000200C) -- CPU_WriteMem(4 bytes @ 0xE0002010) -- CPU_WriteMem(4 bytes @ 0xE0002014) -- CPU_WriteMem(4 bytes @ 0xE0001004) (0006ms, 0801ms total)
T083C 003:158 JLINK_IsHalted()  returns TRUE (0003ms, 0804ms total)
T083C 003:161 JLINK_Halt()  returns 0x00 (0000ms, 0801ms total)
T083C 003:161 JLINK_IsHalted()  returns TRUE (0000ms, 0801ms total)
T083C 003:161 JLINK_IsHalted()  returns TRUE (0000ms, 0801ms total)
T083C 003:161 JLINK_IsHalted()  returns TRUE (0000ms, 0801ms total)
T083C 003:161 JLINK_ReadReg(R15 (PC))  returns 0x08003D90 (0000ms, 0801ms total)
T083C 003:161 JLINK_ReadReg(XPSR)  returns 0x61000000 (0000ms, 0801ms total)
T083C 003:161 JLINK_ClrBPEx(BPHandle = 0x00000001)  returns 0x00 (0000ms, 0801ms total)
T083C 003:161 JLINK_ReadMemU32(0xE000ED30, 0x0001 Items, ...) -- CPU_ReadMem(4 bytes @ 0xE000ED30) - Data: 03 00 00 00  returns 0x01 (0001ms, 0802ms total)
T083C 003:162 JLINK_ReadMemU32(0xE0001028, 0x0001 Items, ...) -- CPU_ReadMem(4 bytes @ 0xE0001028) - Data: 00 00 00 00  returns 0x01 (0001ms, 0803ms total)
T083C 003:163 JLINK_ReadMemU32(0xE0001038, 0x0001 Items, ...) -- CPU_ReadMem(4 bytes @ 0xE0001038) - Data: 00 00 00 00  returns 0x01 (0001ms, 0804ms total)
T083C 003:164 JLINK_ReadReg(R0)  returns 0x08003D91 (0000ms, 0804ms total)
T083C 003:164 JLINK_ReadReg(R1)  returns 0x20000FF0 (0000ms, 0804ms total)
T083C 003:164 JLINK_ReadReg(R2)  returns 0x00000000 (0000ms, 0804ms total)
T083C 003:164 JLINK_ReadReg(R3)  returns 0x080036A1 (0000ms, 0804ms total)
T083C 003:164 JLINK_ReadReg(R4)  returns 0x08005FA8 (0000ms, 0804ms total)
T083C 003:164 JLINK_ReadReg(R5)  returns 0x00000001 (0000ms, 0804ms total)
T083C 003:164 JLINK_ReadReg(R6)  returns 0x08005FA8 (0000ms, 0804ms total)
T083C 003:164 JLINK_ReadReg(R7)  returns 0xFFFFFFFF (0000ms, 0804ms total)
T083C 003:164 JLINK_ReadReg(R8)  returns 0xFFFFFFFF (0000ms, 0804ms total)
T083C 003:164 JLINK_ReadReg(R9)  returns 0xFFFFFFFF (0000ms, 0804ms total)
T083C 003:164 JLINK_ReadReg(R10)  returns 0xFFFFFFFF (0000ms, 0804ms total)
T083C 003:164 JLINK_ReadReg(R11)  returns 0xFFFFFFFF (0000ms, 0804ms total)
T083C 003:164 JLINK_ReadReg(R12)  returns 0xFFFFFFFF (0000ms, 0804ms total)
T083C 003:164 JLINK_ReadReg(R13 (SP))  returns 0x20000FF0 (0000ms, 0804ms total)
T083C 003:165 JLINK_ReadReg(R14)  returns 0x080002B9 (0000ms, 0804ms total)
T083C 003:165 JLINK_ReadReg(R15 (PC))  returns 0x08003D90 (0000ms, 0804ms total)
T083C 003:165 JLINK_ReadReg(XPSR)  returns 0x61000000 (0000ms, 0804ms total)
T083C 003:165 JLINK_ReadReg(MSP)  returns 0x20000FF0 (0000ms, 0804ms total)
T083C 003:165 JLINK_ReadReg(PSP)  returns 0xFFFFFFFC (0000ms, 0804ms total)
T083C 003:165 JLINK_ReadReg(CFBP)  returns 0x00000000 (0000ms, 0804ms total)
T0620 003:170 JLINK_ReadMem (0x48000400, 0x0014 Bytes, ...) -- CPU_ReadMem(20 bytes @ 0x48000400) - Data: 00 00 00 00 00 00 00 00 00 00 00 00 00 00 00 00 ...  returns 0x00 (0002ms, 0806ms total)
T0620 003:172 JLINK_ReadMem (0x48000414, 0x0004 Bytes, ...) -- CPU_ReadMem(4 bytes @ 0x48000414) - Data: 00 00 00 00  returns 0x00 (0000ms, 0806ms total)
T0620 003:172 JLINK_ReadMem (0x4800041C, 0x0008 Bytes, ...) -- CPU_ReadMem(8 bytes @ 0x4800041C) - Data: 00 00 00 00 00 00 00 00  returns 0x00 (0001ms, 0807ms total)
T0620 003:173 JLINK_ReadMem (0x48000424, 0x0004 Bytes, ...) -- CPU_ReadMem(4 bytes @ 0x48000424) - Data: 00 00 00 00  returns 0x00 (0001ms, 0808ms total)
T0620 003:174 JLINK_ReadMem (0x48000800, 0x0014 Bytes, ...) -- CPU_ReadMem(20 bytes @ 0x48000800) - Data: 00 00 00 00 00 00 00 00 00 00 00 00 00 00 00 00 ...  returns 0x00 (0001ms, 0809ms total)
T0620 003:175 JLINK_ReadMem (0x48000814, 0x0004 Bytes, ...) -- CPU_ReadMem(4 bytes @ 0x48000814) - Data: 00 00 00 00  returns 0x00 (0001ms, 0810ms total)
T0620 003:176 JLINK_ReadMem (0x4800081C, 0x0008 Bytes, ...) -- CPU_ReadMem(8 bytes @ 0x4800081C) - Data: 00 00 00 00 00 00 00 00  returns 0x00 (0001ms, 0811ms total)
T0620 003:177 JLINK_ReadMem (0x48000824, 0x0004 Bytes, ...) -- CPU_ReadMem(4 bytes @ 0x48000824) - Data: 00 00 00 00  returns 0x00 (0001ms, 0812ms total)
T0620 003:179 JLINK_ReadMem (0x08003D90, 0x003C Bytes, ...) -- CPU_ReadMem(128 bytes @ 0x08003D80) -- Updating C cache (128 bytes @ 0x08003D80) -- Read from C cache (60 bytes @ 0x08003D90) - Data: 00 BF 00 BF 00 BF 00 24 02 F0 1C F8 FF F7 F6 FD ...  returns 0x00 (0002ms, 0814ms total)
T083C 006:243 JLINK_Step() -- Read from C cache (2 bytes @ 0x08003D90) -- CPU_ReadMem(4 bytes @ 0xE0001004) -- Simulated  returns 0x00 (0003ms, 0817ms total)
T083C 006:246 JLINK_ReadReg(R15 (PC))  returns 0x08003D92 (0000ms, 0817ms total)
T083C 006:246 JLINK_ReadReg(XPSR)  returns 0x61000000 (0000ms, 0817ms total)
T083C 006:246 JLINK_ReadReg(R0)  returns 0x08003D91 (0000ms, 0817ms total)
T083C 006:246 JLINK_ReadReg(R1)  returns 0x20000FF0 (0000ms, 0817ms total)
T083C 006:246 JLINK_ReadReg(R2)  returns 0x00000000 (0000ms, 0817ms total)
T083C 006:246 JLINK_ReadReg(R3)  returns 0x080036A1 (0000ms, 0817ms total)
T083C 006:246 JLINK_ReadReg(R4)  returns 0x08005FA8 (0000ms, 0817ms total)
T083C 006:246 JLINK_ReadReg(R5)  returns 0x00000001 (0000ms, 0817ms total)
T083C 006:246 JLINK_ReadReg(R6)  returns 0x08005FA8 (0000ms, 0817ms total)
T083C 006:246 JLINK_ReadReg(R7)  returns 0xFFFFFFFF (0000ms, 0817ms total)
T083C 006:246 JLINK_ReadReg(R8)  returns 0xFFFFFFFF (0000ms, 0817ms total)
T083C 006:246 JLINK_ReadReg(R9)  returns 0xFFFFFFFF (0000ms, 0817ms total)
T083C 006:246 JLINK_ReadReg(R10)  returns 0xFFFFFFFF (0000ms, 0817ms total)
T083C 006:246 JLINK_ReadReg(R11)  returns 0xFFFFFFFF (0000ms, 0817ms total)
T083C 006:246 JLINK_ReadReg(R12)  returns 0xFFFFFFFF (0000ms, 0817ms total)
T083C 006:246 JLINK_ReadReg(R13 (SP))  returns 0x20000FF0 (0000ms, 0817ms total)
T083C 006:246 JLINK_ReadReg(R14)  returns 0x080002B9 (0000ms, 0817ms total)
T083C 006:246 JLINK_ReadReg(R15 (PC))  returns 0x08003D92 (0000ms, 0817ms total)
T083C 006:246 JLINK_ReadReg(XPSR)  returns 0x61000000 (0000ms, 0817ms total)
T083C 006:246 JLINK_ReadReg(MSP)  returns 0x20000FF0 (0000ms, 0817ms total)
T083C 006:246 JLINK_ReadReg(PSP)  returns 0xFFFFFFFC (0000ms, 0817ms total)
T083C 006:246 JLINK_ReadReg(CFBP)  returns 0x00000000 (0000ms, 0817ms total)
T0620 006:248 JLINK_ReadMem (0x48000400, 0x0014 Bytes, ...) -- CPU_ReadMem(20 bytes @ 0x48000400) - Data: 00 00 00 00 00 00 00 00 00 00 00 00 00 00 00 00 ...  returns 0x00 (0001ms, 0818ms total)
T0620 006:249 JLINK_ReadMem (0x48000414, 0x0004 Bytes, ...) -- CPU_ReadMem(4 bytes @ 0x48000414) - Data: 00 00 00 00  returns 0x00 (0001ms, 0819ms total)
T0620 006:250 JLINK_ReadMem (0x4800041C, 0x0008 Bytes, ...) -- CPU_ReadMem(8 bytes @ 0x4800041C) - Data: 00 00 00 00 00 00 00 00  returns 0x00 (0001ms, 0820ms total)
T0620 006:251 JLINK_ReadMem (0x48000424, 0x0004 Bytes, ...) -- CPU_ReadMem(4 bytes @ 0x48000424) - Data: 00 00 00 00  returns 0x00 (0001ms, 0821ms total)
T0620 006:252 JLINK_ReadMem (0x48000800, 0x0014 Bytes, ...) -- CPU_ReadMem(20 bytes @ 0x48000800) - Data: 00 00 00 00 00 00 00 00 00 00 00 00 00 00 00 00 ...  returns 0x00 (0001ms, 0822ms total)
T0620 006:253 JLINK_ReadMem (0x48000814, 0x0004 Bytes, ...) -- CPU_ReadMem(4 bytes @ 0x48000814) - Data: 00 00 00 00  returns 0x00 (0001ms, 0823ms total)
T0620 006:254 JLINK_ReadMem (0x4800081C, 0x0008 Bytes, ...) -- CPU_ReadMem(8 bytes @ 0x4800081C) - Data: 00 00 00 00 00 00 00 00  returns 0x00 (0001ms, 0824ms total)
T0620 006:255 JLINK_ReadMem (0x48000824, 0x0004 Bytes, ...) -- CPU_ReadMem(4 bytes @ 0x48000824) - Data: 00 00 00 00  returns 0x00 (0001ms, 0825ms total)
T083C 006:684 JLINK_ReadMem (0x08003D92, 0x0002 Bytes, ...) -- Read from C cache (2 bytes @ 0x08003D92) - Data: 00 BF  returns 0x00 (0000ms, 0825ms total)
T083C 006:684 JLINK_ReadMem (0x08003D94, 0x003C Bytes, ...) -- Read from C cache (60 bytes @ 0x08003D94) - Data: 00 BF 00 24 02 F0 1C F8 FF F7 F6 FD 00 F0 64 F8 ...  returns 0x00 (0000ms, 0825ms total)
T083C 006:684 JLINK_Step() -- Read from C cache (2 bytes @ 0x08003D92) -- Simulated  returns 0x00 (0000ms, 0825ms total)
T083C 006:684 JLINK_ReadReg(R15 (PC))  returns 0x08003D94 (0000ms, 0825ms total)
T083C 006:684 JLINK_ReadReg(XPSR)  returns 0x61000000 (0000ms, 0825ms total)
T083C 006:684 JLINK_ReadReg(R0)  returns 0x08003D91 (0000ms, 0825ms total)
T083C 006:684 JLINK_ReadReg(R1)  returns 0x20000FF0 (0000ms, 0825ms total)
T083C 006:684 JLINK_ReadReg(R2)  returns 0x00000000 (0000ms, 0825ms total)
T083C 006:684 JLINK_ReadReg(R3)  returns 0x080036A1 (0000ms, 0825ms total)
T083C 006:684 JLINK_ReadReg(R4)  returns 0x08005FA8 (0000ms, 0825ms total)
T083C 006:684 JLINK_ReadReg(R5)  returns 0x00000001 (0000ms, 0825ms total)
T083C 006:684 JLINK_ReadReg(R6)  returns 0x08005FA8 (0000ms, 0825ms total)
T083C 006:684 JLINK_ReadReg(R7)  returns 0xFFFFFFFF (0000ms, 0825ms total)
T083C 006:684 JLINK_ReadReg(R8)  returns 0xFFFFFFFF (0000ms, 0825ms total)
T083C 006:684 JLINK_ReadReg(R9)  returns 0xFFFFFFFF (0000ms, 0825ms total)
T083C 006:684 JLINK_ReadReg(R10)  returns 0xFFFFFFFF (0000ms, 0825ms total)
T083C 006:684 JLINK_ReadReg(R11)  returns 0xFFFFFFFF (0000ms, 0825ms total)
T083C 006:685 JLINK_ReadReg(R12)  returns 0xFFFFFFFF (0000ms, 0826ms total)
T083C 006:685 JLINK_ReadReg(R13 (SP))  returns 0x20000FF0 (0000ms, 0826ms total)
T083C 006:685 JLINK_ReadReg(R14)  returns 0x080002B9 (0000ms, 0826ms total)
T083C 006:685 JLINK_ReadReg(R15 (PC))  returns 0x08003D94 (0000ms, 0826ms total)
T083C 006:685 JLINK_ReadReg(XPSR)  returns 0x61000000 (0000ms, 0826ms total)
T083C 006:685 JLINK_ReadReg(MSP)  returns 0x20000FF0 (0000ms, 0826ms total)
T083C 006:685 JLINK_ReadReg(PSP)  returns 0xFFFFFFFC (0000ms, 0826ms total)
T083C 006:685 JLINK_ReadReg(CFBP)  returns 0x00000000 (0000ms, 0826ms total)
T0620 006:687 JLINK_ReadMem (0x48000400, 0x0014 Bytes, ...) -- CPU_ReadMem(20 bytes @ 0x48000400) - Data: 00 00 00 00 00 00 00 00 00 00 00 00 00 00 00 00 ...  returns 0x00 (0001ms, 0827ms total)
T0620 006:688 JLINK_ReadMem (0x48000414, 0x0004 Bytes, ...) -- CPU_ReadMem(4 bytes @ 0x48000414) - Data: 00 00 00 00  returns 0x00 (0001ms, 0828ms total)
T0620 006:689 JLINK_ReadMem (0x4800041C, 0x0008 Bytes, ...) -- CPU_ReadMem(8 bytes @ 0x4800041C) - Data: 00 00 00 00 00 00 00 00  returns 0x00 (0001ms, 0829ms total)
T0620 006:690 JLINK_ReadMem (0x48000424, 0x0004 Bytes, ...) -- CPU_ReadMem(4 bytes @ 0x48000424) - Data: 00 00 00 00  returns 0x00 (0001ms, 0830ms total)
T0620 006:691 JLINK_ReadMem (0x48000800, 0x0014 Bytes, ...) -- CPU_ReadMem(20 bytes @ 0x48000800) - Data: 00 00 00 00 00 00 00 00 00 00 00 00 00 00 00 00 ...  returns 0x00 (0001ms, 0831ms total)
T0620 006:692 JLINK_ReadMem (0x48000814, 0x0004 Bytes, ...) -- CPU_ReadMem(4 bytes @ 0x48000814) - Data: 00 00 00 00  returns 0x00 (0001ms, 0832ms total)
T0620 006:693 JLINK_ReadMem (0x4800081C, 0x0008 Bytes, ...) -- CPU_ReadMem(8 bytes @ 0x4800081C) - Data: 00 00 00 00 00 00 00 00  returns 0x00 (0001ms, 0833ms total)
T0620 006:694 JLINK_ReadMem (0x48000824, 0x0004 Bytes, ...) -- CPU_ReadMem(4 bytes @ 0x48000824) - Data: 00 00 00 00  returns 0x00 (0001ms, 0834ms total)
T0620 006:695 JLINK_ReadMem (0x08003D94, 0x003C Bytes, ...) -- Read from C cache (60 bytes @ 0x08003D94) - Data: 00 BF 00 24 02 F0 1C F8 FF F7 F6 FD 00 F0 64 F8 ...  returns 0x00 (0000ms, 0834ms total)
T083C 007:060 JLINK_Step() -- Read from C cache (2 bytes @ 0x08003D94) -- Simulated  returns 0x00 (0001ms, 0835ms total)
T083C 007:061 JLINK_ReadReg(R15 (PC))  returns 0x08003D96 (0000ms, 0835ms total)
T083C 007:061 JLINK_ReadReg(XPSR)  returns 0x61000000 (0000ms, 0835ms total)
T083C 007:061 JLINK_ReadReg(R0)  returns 0x08003D91 (0000ms, 0835ms total)
T083C 007:061 JLINK_ReadReg(R1)  returns 0x20000FF0 (0000ms, 0835ms total)
T083C 007:061 JLINK_ReadReg(R2)  returns 0x00000000 (0000ms, 0835ms total)
T083C 007:061 JLINK_ReadReg(R3)  returns 0x080036A1 (0000ms, 0835ms total)
T083C 007:061 JLINK_ReadReg(R4)  returns 0x08005FA8 (0000ms, 0835ms total)
T083C 007:061 JLINK_ReadReg(R5)  returns 0x00000001 (0000ms, 0835ms total)
T083C 007:061 JLINK_ReadReg(R6)  returns 0x08005FA8 (0000ms, 0835ms total)
T083C 007:061 JLINK_ReadReg(R7)  returns 0xFFFFFFFF (0000ms, 0835ms total)
T083C 007:061 JLINK_ReadReg(R8)  returns 0xFFFFFFFF (0000ms, 0835ms total)
T083C 007:061 JLINK_ReadReg(R9)  returns 0xFFFFFFFF (0000ms, 0835ms total)
T083C 007:061 JLINK_ReadReg(R10)  returns 0xFFFFFFFF (0000ms, 0835ms total)
T083C 007:061 JLINK_ReadReg(R11)  returns 0xFFFFFFFF (0000ms, 0835ms total)
T083C 007:061 JLINK_ReadReg(R12)  returns 0xFFFFFFFF (0000ms, 0835ms total)
T083C 007:061 JLINK_ReadReg(R13 (SP))  returns 0x20000FF0 (0000ms, 0835ms total)
T083C 007:061 JLINK_ReadReg(R14)  returns 0x080002B9 (0000ms, 0835ms total)
T083C 007:061 JLINK_ReadReg(R15 (PC))  returns 0x08003D96 (0000ms, 0835ms total)
T083C 007:061 JLINK_ReadReg(XPSR)  returns 0x61000000 (0000ms, 0835ms total)
T083C 007:061 JLINK_ReadReg(MSP)  returns 0x20000FF0 (0000ms, 0835ms total)
T083C 007:061 JLINK_ReadReg(PSP)  returns 0xFFFFFFFC (0000ms, 0835ms total)
T083C 007:061 JLINK_ReadReg(CFBP)  returns 0x00000000 (0001ms, 0836ms total)
T0620 007:063 JLINK_ReadMem (0x48000400, 0x0014 Bytes, ...) -- CPU_ReadMem(20 bytes @ 0x48000400) - Data: 00 00 00 00 00 00 00 00 00 00 00 00 00 00 00 00 ...  returns 0x00 (0002ms, 0838ms total)
T0620 007:065 JLINK_ReadMem (0x48000414, 0x0004 Bytes, ...) -- CPU_ReadMem(4 bytes @ 0x48000414) - Data: 00 00 00 00  returns 0x00 (0001ms, 0839ms total)
T0620 007:066 JLINK_ReadMem (0x4800041C, 0x0008 Bytes, ...) -- CPU_ReadMem(8 bytes @ 0x4800041C) - Data: 00 00 00 00 00 00 00 00  returns 0x00 (0001ms, 0840ms total)
T0620 007:067 JLINK_ReadMem (0x48000424, 0x0004 Bytes, ...) -- CPU_ReadMem(4 bytes @ 0x48000424) - Data: 00 00 00 00  returns 0x00 (0001ms, 0841ms total)
T0620 007:068 JLINK_ReadMem (0x48000800, 0x0014 Bytes, ...) -- CPU_ReadMem(20 bytes @ 0x48000800) - Data: 00 00 00 00 00 00 00 00 00 00 00 00 00 00 00 00 ...  returns 0x00 (0001ms, 0842ms total)
T0620 007:069 JLINK_ReadMem (0x48000814, 0x0004 Bytes, ...) -- CPU_ReadMem(4 bytes @ 0x48000814) - Data: 00 00 00 00  returns 0x00 (0002ms, 0844ms total)
T0620 007:071 JLINK_ReadMem (0x4800081C, 0x0008 Bytes, ...) -- CPU_ReadMem(8 bytes @ 0x4800081C) - Data: 00 00 00 00 00 00 00 00  returns 0x00 (0001ms, 0845ms total)
T0620 007:072 JLINK_ReadMem (0x48000824, 0x0004 Bytes, ...) -- CPU_ReadMem(4 bytes @ 0x48000824) - Data: 00 00 00 00  returns 0x00 (0000ms, 0845ms total)
T083C 007:479 JLINK_ReadMem (0x08003D96, 0x0002 Bytes, ...) -- Read from C cache (2 bytes @ 0x08003D96) - Data: 00 24  returns 0x00 (0001ms, 0846ms total)
T083C 007:480 JLINK_ReadMem (0x08003D98, 0x003C Bytes, ...) -- Read from C cache (60 bytes @ 0x08003D98) - Data: 02 F0 1C F8 FF F7 F6 FD 00 F0 64 F8 FF F7 1E FB ...  returns 0x00 (0000ms, 0846ms total)
T083C 007:480 JLINK_Step() -- Read from C cache (2 bytes @ 0x08003D96) -- Simulated  returns 0x00 (0000ms, 0846ms total)
T083C 007:480 JLINK_ReadReg(R15 (PC))  returns 0x08003D98 (0000ms, 0846ms total)
T083C 007:480 JLINK_ReadReg(XPSR)  returns 0x61000000 (0000ms, 0846ms total)
T083C 007:480 JLINK_ReadReg(R0)  returns 0x08003D91 (0000ms, 0846ms total)
T083C 007:480 JLINK_ReadReg(R1)  returns 0x20000FF0 (0000ms, 0846ms total)
T083C 007:480 JLINK_ReadReg(R2)  returns 0x00000000 (0000ms, 0846ms total)
T083C 007:480 JLINK_ReadReg(R3)  returns 0x080036A1 (0000ms, 0846ms total)
T083C 007:480 JLINK_ReadReg(R4)  returns 0x00000000 (0000ms, 0846ms total)
T083C 007:480 JLINK_ReadReg(R5)  returns 0x00000001 (0000ms, 0846ms total)
T083C 007:480 JLINK_ReadReg(R6)  returns 0x08005FA8 (0000ms, 0846ms total)
T083C 007:480 JLINK_ReadReg(R7)  returns 0xFFFFFFFF (0000ms, 0846ms total)
T083C 007:480 JLINK_ReadReg(R8)  returns 0xFFFFFFFF (0000ms, 0846ms total)
T083C 007:480 JLINK_ReadReg(R9)  returns 0xFFFFFFFF (0000ms, 0846ms total)
T083C 007:480 JLINK_ReadReg(R10)  returns 0xFFFFFFFF (0000ms, 0846ms total)
T083C 007:480 JLINK_ReadReg(R11)  returns 0xFFFFFFFF (0000ms, 0846ms total)
T083C 007:480 JLINK_ReadReg(R12)  returns 0xFFFFFFFF (0000ms, 0846ms total)
T083C 007:480 JLINK_ReadReg(R13 (SP))  returns 0x20000FF0 (0000ms, 0846ms total)
T083C 007:480 JLINK_ReadReg(R14)  returns 0x080002B9 (0000ms, 0846ms total)
T083C 007:480 JLINK_ReadReg(R15 (PC))  returns 0x08003D98 (0000ms, 0846ms total)
T083C 007:480 JLINK_ReadReg(XPSR)  returns 0x61000000 (0000ms, 0846ms total)
T083C 007:480 JLINK_ReadReg(MSP)  returns 0x20000FF0 (0000ms, 0846ms total)
T083C 007:480 JLINK_ReadReg(PSP)  returns 0xFFFFFFFC (0000ms, 0846ms total)
T083C 007:480 JLINK_ReadReg(CFBP)  returns 0x00000000 (0000ms, 0846ms total)
T0620 007:482 JLINK_ReadMem (0x48000400, 0x0014 Bytes, ...) -- CPU_ReadMem(20 bytes @ 0x48000400) - Data: 00 00 00 00 00 00 00 00 00 00 00 00 00 00 00 00 ...  returns 0x00 (0001ms, 0847ms total)
T0620 007:483 JLINK_ReadMem (0x48000414, 0x0004 Bytes, ...) -- CPU_ReadMem(4 bytes @ 0x48000414) - Data: 00 00 00 00  returns 0x00 (0001ms, 0848ms total)
T0620 007:484 JLINK_ReadMem (0x4800041C, 0x0008 Bytes, ...) -- CPU_ReadMem(8 bytes @ 0x4800041C) - Data: 00 00 00 00 00 00 00 00  returns 0x00 (0001ms, 0849ms total)
T0620 007:485 JLINK_ReadMem (0x48000424, 0x0004 Bytes, ...) -- CPU_ReadMem(4 bytes @ 0x48000424) - Data: 00 00 00 00  returns 0x00 (0001ms, 0850ms total)
T0620 007:486 JLINK_ReadMem (0x48000800, 0x0014 Bytes, ...) -- CPU_ReadMem(20 bytes @ 0x48000800) - Data: 00 00 00 00 00 00 00 00 00 00 00 00 00 00 00 00 ...  returns 0x00 (0001ms, 0851ms total)
T0620 007:487 JLINK_ReadMem (0x48000814, 0x0004 Bytes, ...) -- CPU_ReadMem(4 bytes @ 0x48000814) - Data: 00 00 00 00  returns 0x00 (0001ms, 0852ms total)
T0620 007:488 JLINK_ReadMem (0x4800081C, 0x0008 Bytes, ...) -- CPU_ReadMem(8 bytes @ 0x4800081C) - Data: 00 00 00 00 00 00 00 00  returns 0x00 (0000ms, 0852ms total)
T0620 007:488 JLINK_ReadMem (0x48000824, 0x0004 Bytes, ...) -- CPU_ReadMem(4 bytes @ 0x48000824) - Data: 00 00 00 00  returns 0x00 (0001ms, 0853ms total)
T0620 007:490 JLINK_ReadMem (0x08003D98, 0x003C Bytes, ...) -- Read from C cache (60 bytes @ 0x08003D98) - Data: 02 F0 1C F8 FF F7 F6 FD 00 F0 64 F8 FF F7 1E FB ...  returns 0x00 (0000ms, 0853ms total)
T083C 008:059 JLINK_SetBPEx(Addr = 0x08003D9C, Type = 0xFFFFFFF2)  returns 0x00000002 (0000ms, 0853ms total)
T083C 008:059 JLINK_Go() -- CPU_WriteMem(4 bytes @ 0xE0002000) -- CPU_ReadMem(4 bytes @ 0xE0001000) -- CPU_WriteMem(4 bytes @ 0xE0001000) -- CPU_WriteMem(4 bytes @ 0xE0002008) -- CPU_WriteMem(4 bytes @ 0xE0001004) (0007ms, 0860ms total)
T083C 008:166 JLINK_IsHalted()  returns TRUE (0003ms, 0863ms total)
T083C 008:169 JLINK_Halt()  returns 0x00 (0000ms, 0860ms total)
T083C 008:169 JLINK_IsHalted()  returns TRUE (0000ms, 0860ms total)
T083C 008:169 JLINK_IsHalted()  returns TRUE (0000ms, 0860ms total)
T083C 008:169 JLINK_IsHalted()  returns TRUE (0000ms, 0860ms total)
T083C 008:169 JLINK_ReadReg(R15 (PC))  returns 0x08003D9C (0000ms, 0860ms total)
T083C 008:169 JLINK_ReadReg(XPSR)  returns 0x21000000 (0000ms, 0860ms total)
T083C 008:169 JLINK_ClrBPEx(BPHandle = 0x00000002)  returns 0x00 (0000ms, 0860ms total)
T083C 008:169 JLINK_ReadMemU32(0xE000ED30, 0x0001 Items, ...) -- CPU_ReadMem(4 bytes @ 0xE000ED30) - Data: 03 00 00 00  returns 0x01 (0002ms, 0862ms total)
T083C 008:171 JLINK_ReadMemU32(0xE0001028, 0x0001 Items, ...) -- CPU_ReadMem(4 bytes @ 0xE0001028) - Data: 00 00 00 00  returns 0x01 (0000ms, 0862ms total)
T083C 008:171 JLINK_ReadMemU32(0xE0001038, 0x0001 Items, ...) -- CPU_ReadMem(4 bytes @ 0xE0001038) - Data: 00 00 00 00  returns 0x01 (0001ms, 0863ms total)
T083C 008:172 JLINK_ReadReg(R0)  returns 0x40013800 (0000ms, 0863ms total)
T083C 008:172 JLINK_ReadReg(R1)  returns 0x00000001 (0000ms, 0863ms total)
T083C 008:172 JLINK_ReadReg(R2)  returns 0x0000000D (0000ms, 0863ms total)
T083C 008:172 JLINK_ReadReg(R3)  returns 0x00000001 (0000ms, 0863ms total)
T083C 008:172 JLINK_ReadReg(R4)  returns 0x00000000 (0001ms, 0864ms total)
T083C 008:173 JLINK_ReadReg(R5)  returns 0x00000001 (0000ms, 0864ms total)
T083C 008:173 JLINK_ReadReg(R6)  returns 0x08005FA8 (0000ms, 0864ms total)
T083C 008:173 JLINK_ReadReg(R7)  returns 0xFFFFFFFF (0000ms, 0864ms total)
T083C 008:173 JLINK_ReadReg(R8)  returns 0xFFFFFFFF (0000ms, 0864ms total)
T083C 008:173 JLINK_ReadReg(R9)  returns 0xFFFFFFFF (0000ms, 0864ms total)
T083C 008:173 JLINK_ReadReg(R10)  returns 0xFFFFFFFF (0000ms, 0864ms total)
T083C 008:173 JLINK_ReadReg(R11)  returns 0xFFFFFFFF (0000ms, 0864ms total)
T083C 008:173 JLINK_ReadReg(R12)  returns 0xFFFFFFFF (0000ms, 0864ms total)
T083C 008:173 JLINK_ReadReg(R13 (SP))  returns 0x20000FF0 (0000ms, 0864ms total)
T083C 008:173 JLINK_ReadReg(R14)  returns 0x08005E41 (0000ms, 0864ms total)
T083C 008:173 JLINK_ReadReg(R15 (PC))  returns 0x08003D9C (0000ms, 0864ms total)
T083C 008:173 JLINK_ReadReg(XPSR)  returns 0x21000000 (0000ms, 0864ms total)
T083C 008:173 JLINK_ReadReg(MSP)  returns 0x20000FF0 (0000ms, 0864ms total)
T083C 008:173 JLINK_ReadReg(PSP)  returns 0xFFFFFFFC (0000ms, 0864ms total)
T083C 008:173 JLINK_ReadReg(CFBP)  returns 0x00000000 (0000ms, 0864ms total)
T0620 008:175 JLINK_ReadMem (0x48000400, 0x0014 Bytes, ...) -- CPU_ReadMem(20 bytes @ 0x48000400) - Data: 00 00 00 00 00 00 00 00 00 00 00 00 00 00 00 00 ...  returns 0x00 (0001ms, 0865ms total)
T0620 008:176 JLINK_ReadMem (0x48000414, 0x0004 Bytes, ...) -- CPU_ReadMem(4 bytes @ 0x48000414) - Data: 00 00 00 00  returns 0x00 (0001ms, 0866ms total)
T0620 008:177 JLINK_ReadMem (0x4800041C, 0x0008 Bytes, ...) -- CPU_ReadMem(8 bytes @ 0x4800041C) - Data: 00 00 00 00 00 00 00 00  returns 0x00 (0002ms, 0868ms total)
T0620 008:179 JLINK_ReadMem (0x48000424, 0x0004 Bytes, ...) -- CPU_ReadMem(4 bytes @ 0x48000424) - Data: 00 00 00 00  returns 0x00 (0000ms, 0868ms total)
T0620 008:180 JLINK_ReadMem (0x48000800, 0x0014 Bytes, ...) -- CPU_ReadMem(20 bytes @ 0x48000800) - Data: 00 00 00 00 00 00 00 00 00 00 00 00 00 00 00 00 ...  returns 0x00 (0001ms, 0869ms total)
T0620 008:181 JLINK_ReadMem (0x48000814, 0x0004 Bytes, ...) -- CPU_ReadMem(4 bytes @ 0x48000814) - Data: 00 00 00 00  returns 0x00 (0001ms, 0870ms total)
T0620 008:182 JLINK_ReadMem (0x4800081C, 0x0008 Bytes, ...) -- CPU_ReadMem(8 bytes @ 0x4800081C) - Data: 00 00 00 00 00 00 00 00  returns 0x00 (0001ms, 0871ms total)
T0620 008:183 JLINK_ReadMem (0x48000824, 0x0004 Bytes, ...) -- CPU_ReadMem(4 bytes @ 0x48000824) - Data: 00 00 00 00  returns 0x00 (0001ms, 0872ms total)
T083C 008:607 JLINK_ReadMem (0x08003D9C, 0x003C Bytes, ...) -- CPU_ReadMem(128 bytes @ 0x08003D80) -- Updating C cache (128 bytes @ 0x08003D80) -- Read from C cache (60 bytes @ 0x08003D9C) - Data: FF F7 F6 FD 00 F0 64 F8 FF F7 1E FB 1B A0 FF F7 ...  returns 0x00 (0003ms, 0875ms total)
T083C 008:610 JLINK_SetBPEx(Addr = 0x08003DA0, Type = 0xFFFFFFF2)  returns 0x00000003 (0000ms, 0875ms total)
T083C 008:610 JLINK_Go() -- CPU_WriteMem(4 bytes @ 0xE0002000) -- CPU_ReadMem(4 bytes @ 0xE0001000) -- CPU_WriteMem(4 bytes @ 0xE0001000) -- CPU_WriteMem(4 bytes @ 0xE0002008) (0003ms, 0878ms total)
T083C 008:714 JLINK_IsHalted()  returns TRUE (0003ms, 0881ms total)
T083C 008:717 JLINK_Halt()  returns 0x00 (0000ms, 0878ms total)
T083C 008:717 JLINK_IsHalted()  returns TRUE (0000ms, 0878ms total)
T083C 008:717 JLINK_IsHalted()  returns TRUE (0000ms, 0878ms total)
T083C 008:717 JLINK_IsHalted()  returns TRUE (0000ms, 0878ms total)
T083C 008:717 JLINK_ReadReg(R15 (PC))  returns 0x08003DA0 (0000ms, 0878ms total)
T083C 008:717 JLINK_ReadReg(XPSR)  returns 0x01000000 (0000ms, 0878ms total)
T083C 008:717 JLINK_ClrBPEx(BPHandle = 0x00000003)  returns 0x00 (0000ms, 0878ms total)
T083C 008:717 JLINK_ReadMemU32(0xE000ED30, 0x0001 Items, ...) -- CPU_ReadMem(4 bytes @ 0xE000ED30) - Data: 03 00 00 00  returns 0x01 (0001ms, 0879ms total)
T083C 008:718 JLINK_ReadMemU32(0xE0001028, 0x0001 Items, ...) -- CPU_ReadMem(4 bytes @ 0xE0001028) - Data: 00 00 00 00  returns 0x01 (0001ms, 0880ms total)
T083C 008:719 JLINK_ReadMemU32(0xE0001038, 0x0001 Items, ...) -- CPU_ReadMem(4 bytes @ 0xE0001038) - Data: 00 00 00 00  returns 0x01 (0001ms, 0881ms total)
T083C 008:720 JLINK_ReadReg(R0)  returns 0x00000030 (0000ms, 0881ms total)
T083C 008:720 JLINK_ReadReg(R1)  returns 0x0000BB80 (0000ms, 0881ms total)
T083C 008:720 JLINK_ReadReg(R2)  returns 0x20000002 (0000ms, 0881ms total)
T083C 008:720 JLINK_ReadReg(R3)  returns 0x00000001 (0000ms, 0881ms total)
T083C 008:720 JLINK_ReadReg(R4)  returns 0x00000000 (0000ms, 0881ms total)
T083C 008:720 JLINK_ReadReg(R5)  returns 0x00000001 (0000ms, 0881ms total)
T083C 008:720 JLINK_ReadReg(R6)  returns 0x08005FA8 (0000ms, 0881ms total)
T083C 008:720 JLINK_ReadReg(R7)  returns 0xFFFFFFFF (0000ms, 0881ms total)
T083C 008:720 JLINK_ReadReg(R8)  returns 0xFFFFFFFF (0000ms, 0881ms total)
T083C 008:720 JLINK_ReadReg(R9)  returns 0xFFFFFFFF (0000ms, 0881ms total)
T083C 008:720 JLINK_ReadReg(R10)  returns 0xFFFFFFFF (0001ms, 0882ms total)
T083C 008:721 JLINK_ReadReg(R11)  returns 0xFFFFFFFF (0000ms, 0882ms total)
T083C 008:721 JLINK_ReadReg(R12)  returns 0xFFFFFFFF (0000ms, 0882ms total)
T083C 008:721 JLINK_ReadReg(R13 (SP))  returns 0x20000FF0 (0000ms, 0882ms total)
T083C 008:721 JLINK_ReadReg(R14)  returns 0x08003DA1 (0000ms, 0882ms total)
T083C 008:721 JLINK_ReadReg(R15 (PC))  returns 0x08003DA0 (0000ms, 0882ms total)
T083C 008:721 JLINK_ReadReg(XPSR)  returns 0x01000000 (0000ms, 0882ms total)
T083C 008:721 JLINK_ReadReg(MSP)  returns 0x20000FF0 (0000ms, 0882ms total)
T083C 008:721 JLINK_ReadReg(PSP)  returns 0xFFFFFFFC (0000ms, 0882ms total)
T083C 008:721 JLINK_ReadReg(CFBP)  returns 0x00000000 (0000ms, 0882ms total)
T0620 008:722 JLINK_ReadMem (0x48000400, 0x0014 Bytes, ...) -- CPU_ReadMem(20 bytes @ 0x48000400) - Data: 00 00 00 00 00 00 00 00 00 00 00 00 00 00 00 00 ...  returns 0x00 (0001ms, 0883ms total)
T0620 008:723 JLINK_ReadMem (0x48000414, 0x0004 Bytes, ...) -- CPU_ReadMem(4 bytes @ 0x48000414) - Data: 00 00 00 00  returns 0x00 (0001ms, 0884ms total)
T0620 008:724 JLINK_ReadMem (0x4800041C, 0x0008 Bytes, ...) -- CPU_ReadMem(8 bytes @ 0x4800041C) - Data: 00 00 00 00 00 00 00 00  returns 0x00 (0001ms, 0885ms total)
T0620 008:725 JLINK_ReadMem (0x48000424, 0x0004 Bytes, ...) -- CPU_ReadMem(4 bytes @ 0x48000424) - Data: 00 00 00 00  returns 0x00 (0001ms, 0886ms total)
T0620 008:726 JLINK_ReadMem (0x48000800, 0x0014 Bytes, ...) -- CPU_ReadMem(20 bytes @ 0x48000800) - Data: 00 00 00 00 00 00 00 00 00 00 00 00 00 00 00 00 ...  returns 0x00 (0001ms, 0887ms total)
T0620 008:728 JLINK_ReadMem (0x48000814, 0x0004 Bytes, ...) -- CPU_ReadMem(4 bytes @ 0x48000814) - Data: 00 00 00 00  returns 0x00 (0001ms, 0888ms total)
T0620 008:729 JLINK_ReadMem (0x4800081C, 0x0008 Bytes, ...) -- CPU_ReadMem(8 bytes @ 0x4800081C) - Data: 00 00 00 00 00 00 00 00  returns 0x00 (0000ms, 0888ms total)
T0620 008:729 JLINK_ReadMem (0x48000824, 0x0004 Bytes, ...) -- CPU_ReadMem(4 bytes @ 0x48000824) - Data: 00 00 00 00  returns 0x00 (0001ms, 0889ms total)
T0620 008:731 JLINK_ReadMem (0x08003DA0, 0x003C Bytes, ...) -- CPU_ReadMem(128 bytes @ 0x08003D80) -- Updating C cache (128 bytes @ 0x08003D80) -- Read from C cache (60 bytes @ 0x08003DA0) - Data: 00 F0 64 F8 FF F7 1E FB 1B A0 FF F7 53 FC 00 F0 ...  returns 0x00 (0002ms, 0891ms total)
T083C 009:091 JLINK_SetBPEx(Addr = 0x08003DA4, Type = 0xFFFFFFF2)  returns 0x00000004 (0001ms, 0892ms total)
T083C 009:092 JLINK_Go() -- CPU_WriteMem(4 bytes @ 0xE0002000) -- CPU_ReadMem(4 bytes @ 0xE0001000) -- CPU_WriteMem(4 bytes @ 0xE0001000) -- CPU_WriteMem(4 bytes @ 0xE0002008) (0003ms, 0895ms total)
T083C 009:196 JLINK_IsHalted()  returns TRUE (0002ms, 0897ms total)
T083C 009:198 JLINK_Halt()  returns 0x00 (0000ms, 0895ms total)
T083C 009:198 JLINK_IsHalted()  returns TRUE (0000ms, 0895ms total)
T083C 009:198 JLINK_IsHalted()  returns TRUE (0000ms, 0895ms total)
T083C 009:198 JLINK_IsHalted()  returns TRUE (0000ms, 0895ms total)
T083C 009:198 JLINK_ReadReg(R15 (PC))  returns 0x08003DA4 (0000ms, 0895ms total)
T083C 009:198 JLINK_ReadReg(XPSR)  returns 0x61000000 (0000ms, 0895ms total)
T083C 009:198 JLINK_ClrBPEx(BPHandle = 0x00000004)  returns 0x00 (0000ms, 0895ms total)
T083C 009:198 JLINK_ReadMemU32(0xE000ED30, 0x0001 Items, ...) -- CPU_ReadMem(4 bytes @ 0xE000ED30) - Data: 03 00 00 00  returns 0x01 (0001ms, 0896ms total)
T083C 009:199 JLINK_ReadMemU32(0xE0001028, 0x0001 Items, ...) -- CPU_ReadMem(4 bytes @ 0xE0001028) - Data: 00 00 00 00  returns 0x01 (0001ms, 0897ms total)
T083C 009:200 JLINK_ReadMemU32(0xE0001038, 0x0001 Items, ...) -- CPU_ReadMem(4 bytes @ 0xE0001038) - Data: 00 00 00 00  returns 0x01 (0001ms, 0898ms total)
T083C 009:201 JLINK_ReadReg(R0)  returns 0x48000400 (0000ms, 0898ms total)
T083C 009:201 JLINK_ReadReg(R1)  returns 0x00000010 (0000ms, 0898ms total)
T083C 009:201 JLINK_ReadReg(R2)  returns 0x00000004 (0000ms, 0898ms total)
T083C 009:201 JLINK_ReadReg(R3)  returns 0x01000300 (0000ms, 0898ms total)
T083C 009:201 JLINK_ReadReg(R4)  returns 0x00000000 (0000ms, 0898ms total)
T083C 009:201 JLINK_ReadReg(R5)  returns 0x00000001 (0000ms, 0898ms total)
T083C 009:201 JLINK_ReadReg(R6)  returns 0x08005FA8 (0000ms, 0898ms total)
T083C 009:201 JLINK_ReadReg(R7)  returns 0xFFFFFFFF (0000ms, 0898ms total)
T083C 009:201 JLINK_ReadReg(R8)  returns 0xFFFFFFFF (0000ms, 0898ms total)
T083C 009:201 JLINK_ReadReg(R9)  returns 0xFFFFFFFF (0000ms, 0898ms total)
T083C 009:201 JLINK_ReadReg(R10)  returns 0xFFFFFFFF (0000ms, 0898ms total)
T083C 009:201 JLINK_ReadReg(R11)  returns 0xFFFFFFFF (0000ms, 0898ms total)
T083C 009:201 JLINK_ReadReg(R12)  returns 0xFFFFFFFF (0000ms, 0898ms total)
T083C 009:201 JLINK_ReadReg(R13 (SP))  returns 0x20000FF0 (0000ms, 0898ms total)
T083C 009:201 JLINK_ReadReg(R14)  returns 0x08003E97 (0000ms, 0898ms total)
T083C 009:201 JLINK_ReadReg(R15 (PC))  returns 0x08003DA4 (0000ms, 0898ms total)
T083C 009:201 JLINK_ReadReg(XPSR)  returns 0x61000000 (0000ms, 0898ms total)
T083C 009:201 JLINK_ReadReg(MSP)  returns 0x20000FF0 (0000ms, 0898ms total)
T083C 009:201 JLINK_ReadReg(PSP)  returns 0xFFFFFFFC (0000ms, 0898ms total)
T083C 009:201 JLINK_ReadReg(CFBP)  returns 0x00000000 (0000ms, 0898ms total)
T0620 009:203 JLINK_ReadMem (0x48000400, 0x0014 Bytes, ...) -- CPU_ReadMem(20 bytes @ 0x48000400) - Data: 00 00 00 00 00 00 00 00 00 00 00 00 10 00 00 00 ...  returns 0x00 (0001ms, 0899ms total)
T0620 009:204 JLINK_ReadMem (0x48000414, 0x0004 Bytes, ...) -- CPU_ReadMem(4 bytes @ 0x48000414) - Data: 00 00 00 00  returns 0x00 (0001ms, 0900ms total)
T0620 009:205 JLINK_ReadMem (0x4800041C, 0x0008 Bytes, ...) -- CPU_ReadMem(8 bytes @ 0x4800041C) - Data: 00 00 00 00 00 00 00 00  returns 0x00 (0001ms, 0901ms total)
T0620 009:206 JLINK_ReadMem (0x48000424, 0x0004 Bytes, ...) -- CPU_ReadMem(4 bytes @ 0x48000424) - Data: 00 00 00 00  returns 0x00 (0001ms, 0902ms total)
T0620 009:207 JLINK_ReadMem (0x48000800, 0x0014 Bytes, ...) -- CPU_ReadMem(20 bytes @ 0x48000800) - Data: 00 00 00 00 00 00 00 00 00 00 00 00 00 00 00 00 ...  returns 0x00 (0002ms, 0904ms total)
T0620 009:209 JLINK_ReadMem (0x48000814, 0x0004 Bytes, ...) -- CPU_ReadMem(4 bytes @ 0x48000814) - Data: 00 00 00 00  returns 0x00 (0000ms, 0904ms total)
T0620 009:209 JLINK_ReadMem (0x4800081C, 0x0008 Bytes, ...) -- CPU_ReadMem(8 bytes @ 0x4800081C) - Data: 00 00 00 00 00 00 00 00  returns 0x00 (0001ms, 0905ms total)
T0620 009:210 JLINK_ReadMem (0x48000824, 0x0004 Bytes, ...) -- CPU_ReadMem(4 bytes @ 0x48000824) - Data: 00 00 00 00  returns 0x00 (0001ms, 0906ms total)
T083C 009:606 JLINK_ReadMem (0x08003DA4, 0x003C Bytes, ...) -- CPU_ReadMem(128 bytes @ 0x08003D80) -- Updating C cache (128 bytes @ 0x08003D80) -- Read from C cache (60 bytes @ 0x08003DA4) - Data: FF F7 1E FB 1B A0 FF F7 53 FC 00 F0 C7 F8 00 28 ...  returns 0x00 (0002ms, 0908ms total)
T083C 009:608 JLINK_SetBPEx(Addr = 0x08003DA8, Type = 0xFFFFFFF2)  returns 0x00000005 (0001ms, 0909ms total)
T083C 009:609 JLINK_Go() -- CPU_WriteMem(4 bytes @ 0xE0002000) -- CPU_ReadMem(4 bytes @ 0xE0001000) -- CPU_WriteMem(4 bytes @ 0xE0001000) -- CPU_WriteMem(4 bytes @ 0xE0002008) (0004ms, 0913ms total)
T083C 009:713 JLINK_IsHalted()  returns TRUE (0003ms, 0916ms total)
T083C 009:716 JLINK_Halt()  returns 0x00 (0000ms, 0913ms total)
T083C 009:716 JLINK_IsHalted()  returns TRUE (0000ms, 0913ms total)
T083C 009:716 JLINK_IsHalted()  returns TRUE (0000ms, 0913ms total)
T083C 009:716 JLINK_IsHalted()  returns TRUE (0000ms, 0913ms total)
T083C 009:716 JLINK_ReadReg(R15 (PC))  returns 0x08003DA8 (0000ms, 0913ms total)
T083C 009:716 JLINK_ReadReg(XPSR)  returns 0x21000000 (0000ms, 0913ms total)
T083C 009:716 JLINK_ClrBPEx(BPHandle = 0x00000005)  returns 0x00 (0000ms, 0913ms total)
T083C 009:716 JLINK_ReadMemU32(0xE000ED30, 0x0001 Items, ...) -- CPU_ReadMem(4 bytes @ 0xE000ED30) - Data: 03 00 00 00  returns 0x01 (0001ms, 0914ms total)
T083C 009:717 JLINK_ReadMemU32(0xE0001028, 0x0001 Items, ...) -- CPU_ReadMem(4 bytes @ 0xE0001028) - Data: 00 00 00 00  returns 0x01 (0001ms, 0915ms total)
T083C 009:718 JLINK_ReadMemU32(0xE0001038, 0x0001 Items, ...) -- CPU_ReadMem(4 bytes @ 0xE0001038) - Data: 00 00 00 00  returns 0x01 (0001ms, 0916ms total)
T083C 009:719 JLINK_ReadReg(R0)  returns 0x48010010 (0000ms, 0916ms total)
T083C 009:719 JLINK_ReadReg(R1)  returns 0x0000BB7F (0000ms, 0916ms total)
T083C 009:719 JLINK_ReadReg(R2)  returns 0x00000001 (0000ms, 0916ms total)
T083C 009:719 JLINK_ReadReg(R3)  returns 0x01000000 (0000ms, 0916ms total)
T083C 009:719 JLINK_ReadReg(R4)  returns 0x00000000 (0000ms, 0916ms total)
T083C 009:719 JLINK_ReadReg(R5)  returns 0x00000001 (0000ms, 0916ms total)
T083C 009:719 JLINK_ReadReg(R6)  returns 0x08005FA8 (0000ms, 0916ms total)
T083C 009:719 JLINK_ReadReg(R7)  returns 0xFFFFFFFF (0000ms, 0916ms total)
T083C 009:719 JLINK_ReadReg(R8)  returns 0xFFFFFFFF (0000ms, 0916ms total)
T083C 009:719 JLINK_ReadReg(R9)  returns 0xFFFFFFFF (0000ms, 0916ms total)
T083C 009:719 JLINK_ReadReg(R10)  returns 0xFFFFFFFF (0000ms, 0916ms total)
T083C 009:719 JLINK_ReadReg(R11)  returns 0xFFFFFFFF (0000ms, 0916ms total)
T083C 009:719 JLINK_ReadReg(R12)  returns 0xFFFFFFFF (0000ms, 0916ms total)
T083C 009:719 JLINK_ReadReg(R13 (SP))  returns 0x20000FF0 (0000ms, 0916ms total)
T083C 009:719 JLINK_ReadReg(R14)  returns 0x08003435 (0000ms, 0916ms total)
T083C 009:719 JLINK_ReadReg(R15 (PC))  returns 0x08003DA8 (0000ms, 0916ms total)
T083C 009:719 JLINK_ReadReg(XPSR)  returns 0x21000000 (0000ms, 0916ms total)
T083C 009:719 JLINK_ReadReg(MSP)  returns 0x20000FF0 (0000ms, 0916ms total)
T083C 009:719 JLINK_ReadReg(PSP)  returns 0xFFFFFFFC (0000ms, 0916ms total)
T083C 009:719 JLINK_ReadReg(CFBP)  returns 0x00000000 (0000ms, 0916ms total)
T0620 009:721 JLINK_ReadMem (0x48000400, 0x0014 Bytes, ...) -- CPU_ReadMem(20 bytes @ 0x48000400) - Data: 00 00 00 00 00 00 00 00 00 00 00 00 10 00 00 00 ...  returns 0x00 (0001ms, 0917ms total)
T0620 009:722 JLINK_ReadMem (0x48000414, 0x0004 Bytes, ...) -- CPU_ReadMem(4 bytes @ 0x48000414) - Data: 00 00 00 00  returns 0x00 (0001ms, 0918ms total)
T0620 009:723 JLINK_ReadMem (0x4800041C, 0x0008 Bytes, ...) -- CPU_ReadMem(8 bytes @ 0x4800041C) - Data: 00 00 00 00 00 00 00 00  returns 0x00 (0001ms, 0919ms total)
T0620 009:724 JLINK_ReadMem (0x48000424, 0x0004 Bytes, ...) -- CPU_ReadMem(4 bytes @ 0x48000424) - Data: 00 00 00 00  returns 0x00 (0001ms, 0920ms total)
T0620 009:725 JLINK_ReadMem (0x48000800, 0x0014 Bytes, ...) -- CPU_ReadMem(20 bytes @ 0x48000800) - Data: 00 00 00 00 00 00 00 00 00 00 00 00 00 00 00 00 ...  returns 0x00 (0001ms, 0921ms total)
T0620 009:726 JLINK_ReadMem (0x48000814, 0x0004 Bytes, ...) -- CPU_ReadMem(4 bytes @ 0x48000814) - Data: 00 00 00 00  returns 0x00 (0001ms, 0922ms total)
T0620 009:727 JLINK_ReadMem (0x4800081C, 0x0008 Bytes, ...) -- CPU_ReadMem(8 bytes @ 0x4800081C) - Data: 00 00 00 00 00 00 00 00  returns 0x00 (0001ms, 0923ms total)
T0620 009:728 JLINK_ReadMem (0x48000824, 0x0004 Bytes, ...) -- CPU_ReadMem(4 bytes @ 0x48000824) - Data: 00 00 00 00  returns 0x00 (0001ms, 0924ms total)
T0620 009:729 JLINK_ReadMem (0x08003DA8, 0x003C Bytes, ...) -- CPU_ReadMem(128 bytes @ 0x08003D80) -- Updating C cache (128 bytes @ 0x08003D80) -- Read from C cache (60 bytes @ 0x08003DA8) - Data: 1B A0 FF F7 53 FC 00 F0 C7 F8 00 28 05 D1 1C A0 ...  returns 0x00 (0002ms, 0926ms total)
T083C 010:164 JLINK_Step() -- Read from C cache (2 bytes @ 0x08003DA8) -- CPU_ReadMem(4 bytes @ 0xE0001004) -- Simulated  returns 0x00 (0002ms, 0928ms total)
T083C 010:166 JLINK_ReadReg(R15 (PC))  returns 0x08003DAA (0000ms, 0928ms total)
T083C 010:166 JLINK_ReadReg(XPSR)  returns 0x21000000 (0000ms, 0928ms total)
T083C 010:166 JLINK_SetBPEx(Addr = 0x08003DAE, Type = 0xFFFFFFF2)  returns 0x00000006 (0000ms, 0928ms total)
T083C 010:166 JLINK_Go() -- CPU_WriteMem(4 bytes @ 0xE0002000) -- CPU_ReadMem(4 bytes @ 0xE0001000) -- CPU_WriteMem(4 bytes @ 0xE0001000) -- CPU_WriteMem(4 bytes @ 0xE0002008) -- CPU_WriteMem(4 bytes @ 0xE0001004) (0006ms, 0934ms total)
T083C 010:273 JLINK_IsHalted()  returns TRUE (0004ms, 0938ms total)
T083C 010:277 JLINK_Halt()  returns 0x00 (0000ms, 0934ms total)
T083C 010:277 JLINK_IsHalted()  returns TRUE (0000ms, 0934ms total)
T083C 010:277 JLINK_IsHalted()  returns TRUE (0000ms, 0934ms total)
T083C 010:277 JLINK_IsHalted()  returns TRUE (0000ms, 0934ms total)
T083C 010:277 JLINK_ReadReg(R15 (PC))  returns 0x08003DAE (0000ms, 0934ms total)
T083C 010:277 JLINK_ReadReg(XPSR)  returns 0x61000000 (0000ms, 0934ms total)
T083C 010:277 JLINK_ClrBPEx(BPHandle = 0x00000006)  returns 0x00 (0000ms, 0934ms total)
T083C 010:277 JLINK_ReadMemU32(0xE000ED30, 0x0001 Items, ...) -- CPU_ReadMem(4 bytes @ 0xE000ED30) - Data: 03 00 00 00  returns 0x01 (0001ms, 0935ms total)
T083C 010:278 JLINK_ReadMemU32(0xE0001028, 0x0001 Items, ...) -- CPU_ReadMem(4 bytes @ 0xE0001028) - Data: 00 00 00 00  returns 0x01 (0001ms, 0936ms total)
T083C 010:279 JLINK_ReadMemU32(0xE0001038, 0x0001 Items, ...) -- CPU_ReadMem(4 bytes @ 0xE0001038) - Data: 00 00 00 00  returns 0x01 (0001ms, 0937ms total)
T083C 010:280 JLINK_ReadReg(R0)  returns 0x0000000F (0000ms, 0937ms total)
T083C 010:280 JLINK_ReadReg(R1)  returns 0x00000080 (0000ms, 0937ms total)
T083C 010:280 JLINK_ReadReg(R2)  returns 0x40013800 (0000ms, 0937ms total)
T083C 010:280 JLINK_ReadReg(R3)  returns 0x08003DAF (0000ms, 0937ms total)
T083C 010:280 JLINK_ReadReg(R4)  returns 0x00000000 (0000ms, 0937ms total)
T083C 010:280 JLINK_ReadReg(R5)  returns 0x00000001 (0000ms, 0937ms total)
T083C 010:280 JLINK_ReadReg(R6)  returns 0x08005FA8 (0000ms, 0937ms total)
T083C 010:280 JLINK_ReadReg(R7)  returns 0xFFFFFFFF (0000ms, 0937ms total)
